T3208 000:043.958   SEGGER J-Link V6.70e Log File
T3208 000:044.530   DLL Compiled: Apr 17 2020 17:55:05
T3208 000:044.536   Logging started @ 2021-03-07 05:01
T3208 000:044.546 JLINK_SetWarnOutHandler(...)
T3208 000:044.726 - 0.182ms
T3208 000:044.838 JLINK_OpenEx(...)
T3208 000:046.298   Firmware: J-Link ARM-OB STM32 compiled Aug 22 2012 19:52:04
T3208 000:049.197   Hardware: V7.00
T3208 000:049.212   S/N: 20090937
T3208 000:049.220   OEM: SEGGER
T3208 000:049.228   Feature(s): RDI,FlashDL,FlashBP,JFlash,GDBFull
T3208 000:050.690   TELNET listener socket opened on port 19021
T3208 000:050.829   WEBSRV Starting webserver
T3208 000:051.020   WEBSRV Webserver running on local port 19080
T3208 000:051.033 - 6.199ms returns "O.K."
T3208 000:051.067 JLINK_GetEmuCaps()
T3208 000:051.074 - 0.009ms returns 0x88EA5833
T3208 000:051.082 JLINK_TIF_GetAvailable(...)
T3208 000:051.395 - 0.326ms
T3208 000:051.418 JLINK_SetErrorOutHandler(...)
T3208 000:051.424 - 0.008ms
T3208 000:051.787 JLINK_ExecCommand("ProjectFile = "E:\Code\ST\STM32F1\UWB\SDK\Project\ds_twr_init\MDK-ARM\JLinkSettings.ini"", ...). 
T3208 000:105.554 - 54.129ms returns 0x00
T3208 000:109.351 JLINK_ExecCommand("Device = STM32F103C8", ...). 
T3208 000:114.074   Device "STM32F103C8" selected.
T3208 000:119.413 - 10.051ms returns 0x00
T3208 000:119.439 JLINK_ExecCommand("DisableConnectionTimeout", ...). 
T3208 000:119.450 - 0.006ms returns 0x01
T3208 000:119.457 JLINK_GetHardwareVersion()
T3208 000:119.463 - 0.008ms returns 0x11170
T3208 000:119.469 JLINK_GetDLLVersion()  returns 67005
T3208 000:119.482 JLINK_GetFirmwareString(...)
T3208 000:119.487 - 0.008ms
T3208 000:130.831 JLINK_GetDLLVersion()  returns 67005
T3208 000:130.856 JLINK_GetCompileDateTime()
T3208 000:130.861 - 0.008ms
T3208 000:134.595 JLINK_GetFirmwareString(...)
T3208 000:134.609 - 0.017ms
T3208 000:138.001 JLINK_GetHardwareVersion()
T3208 000:138.012 - 0.014ms returns 0x11170
T3208 000:151.687 JLINK_TIF_Select(JLINKARM_TIF_SWD)
T3208 000:152.849 - 1.169ms returns 0x00
T3208 000:153.046 JLINK_SetSpeed(5000)
T3208 000:153.315 - 0.273ms
T3208 000:153.324 JLINK_GetId()
T3208 000:159.522   Found SW-DP with ID 0x1BA01477
T3208 000:186.846   Found SW-DP with ID 0x1BA01477
T3208 000:192.492   Old FW that does not support reading DPIDR via DAP jobs
T3208 000:203.046   Unknown DP version. Assuming DPv0
T3208 000:206.900   Scanning AP map to find all available APs
T3208 000:215.442   AP[1]: Stopped AP scan as end of AP map has been reached
T3208 000:219.001   AP[0]: AHB-AP (IDR: 0x14770011)
T3208 000:222.667   Iterating through AP map to find AHB-AP to use
T3208 000:233.861   AP[0]: Core found
T3208 000:237.597   AP[0]: AHB-AP ROM base: 0xE00FF000
T3208 000:245.435   CPUID register: 0x411FC231. Implementer code: 0x41 (ARM)
T3208 000:249.072   Found Cortex-M3 r1p1, Little endian.
T3208 000:350.514    -- Max. mem block: 0x00002C18
T3208 000:350.557   CPU_ReadMem(4 bytes @ 0xE000EDF0)
T3208 000:351.467   CPU_WriteMem(4 bytes @ 0xE000EDF0)
T3208 000:352.115   CPU_ReadMem(4 bytes @ 0xE0002000)
T3208 000:356.677   FPUnit: 6 code (BP) slots and 2 literal slots
T3208 000:356.693   CPU_ReadMem(4 bytes @ 0xE000EDFC)
T3208 000:357.292   CPU_WriteMem(4 bytes @ 0xE000EDFC)
T3208 000:357.903   CPU_ReadMem(4 bytes @ 0xE0001000)
T3208 000:358.491   CPU_WriteMem(4 bytes @ 0xE0001000)
T3208 000:359.072   CPU_ReadMem(4 bytes @ 0xE000ED88)
T3208 000:359.743   CPU_WriteMem(4 bytes @ 0xE000ED88)
T3208 000:360.317   CPU_ReadMem(4 bytes @ 0xE000ED88)
T3208 000:360.946   CPU_WriteMem(4 bytes @ 0xE000ED88)
T3208 000:365.557   CoreSight components:
T3208 000:369.347   ROMTbl[0] @ E00FF000
T3208 000:369.366   CPU_ReadMem(64 bytes @ 0xE00FF000)
T3208 000:370.619   CPU_ReadMem(32 bytes @ 0xE000EFE0)
T3208 000:374.834   ROMTbl[0][0]: E000E000, CID: B105E00D, PID: 001BB000 SCS
T3208 000:374.850   CPU_ReadMem(32 bytes @ 0xE0001FE0)
T3208 000:379.269   ROMTbl[0][1]: E0001000, CID: B105E00D, PID: 001BB002 DWT
T3208 000:379.286   CPU_ReadMem(32 bytes @ 0xE0002FE0)
T3208 000:383.811   ROMTbl[0][2]: E0002000, CID: B105E00D, PID: 000BB003 FPB
T3208 000:383.915   CPU_ReadMem(32 bytes @ 0xE0000FE0)
T3208 000:388.296   ROMTbl[0][3]: E0000000, CID: B105E00D, PID: 001BB001 ITM
T3208 000:388.312   CPU_ReadMem(32 bytes @ 0xE0040FE0)
T3208 000:392.647   ROMTbl[0][4]: E0040000, CID: B105900D, PID: 001BB923 TPIU-Lite
T3208 000:393.610 - 240.293ms   returns 0x1BA01477
T3208 000:393.628 JLINK_GetDLLVersion()  returns 67005
T3208 000:393.635 JLINK_CORE_GetFound()
T3208 000:393.641 - 0.008ms returns 0x30000FF
T3208 000:393.650 JLINK_GetDebugInfo(0x100 = JLINKARM_ROM_TABLE_ADDR_INDEX)
T3208 000:393.660   Value=0xE00FF000
T3208 000:393.668 - 0.020ms returns 0x00
T3208 000:398.021 JLINK_GetDebugInfo(0x100 = JLINKARM_ROM_TABLE_ADDR_INDEX)
T3208 000:398.037   Value=0xE00FF000
T3208 000:398.045 - 0.026ms returns 0x00
T3208 000:398.052 JLINK_GetDebugInfo(0x101 = JLINKARM_DEBUG_INFO_ETM_ADDR_INDEX)
T3208 000:398.057   Value=0x00000000
T3208 000:398.064 - 0.015ms returns 0x00
T3208 000:398.087   JLINK_ReadMemEx(0xE0041FF0, 0x0010 Bytes, ..., Flags = 0x02000004)
T3208 000:398.337   CPU_ReadMem(16 bytes @ 0xE0041FF0)
T3208 000:399.032   Data:  00 00 00 00 00 00 00 00 00 00 00 00 00 00 00 00
T3208 000:399.043 - 0.964ms returns 0x10
T3208 000:399.051 JLINK_GetDebugInfo(0x102 = JLINKARM_DEBUG_INFO_MTB_ADDR_INDEX)
T3208 000:399.057   Value=0x00000000
T3208 000:399.064 - 0.015ms returns 0x00
T3208 000:399.070 JLINK_GetDebugInfo(0x103 = JLINKARM_DEBUG_INFO_TPIU_ADDR_INDEX)
T3208 000:399.076   Value=0xE0040000
T3208 000:399.083 - 0.015ms returns 0x00
T3208 000:399.089 JLINK_GetDebugInfo(0x104 = JLINKARM_DEBUG_INFO_ITM_ADDR_INDEX)
T3208 000:399.094   Value=0xE0000000
T3208 000:399.102 - 0.015ms returns 0x00
T3208 000:399.108 JLINK_GetDebugInfo(0x105 = JLINKARM_DEBUG_INFO_DWT_ADDR_INDEX)
T3208 000:399.113   Value=0xE0001000
T3208 000:399.120 - 0.015ms returns 0x00
T3208 000:399.126 JLINK_GetDebugInfo(0x106 = JLINKARM_DEBUG_INFO_FPB_ADDR_INDEX)
T3208 000:399.132   Value=0xE0002000
T3208 000:399.139 - 0.015ms returns 0x00
T3208 000:399.145 JLINK_GetDebugInfo(0x107 = JLINKARM_DEBUG_INFO_NVIC_ADDR_INDEX)
T3208 000:399.150   Value=0xE000E000
T3208 000:399.157 - 0.015ms returns 0x00
T3208 000:399.163 JLINK_GetDebugInfo(0x10C = JLINKARM_DEBUG_INFO_DBG_ADDR_INDEX)
T3208 000:399.169   Value=0xE000EDF0
T3208 000:399.176 - 0.015ms returns 0x00
T3208 000:399.182 JLINK_GetDebugInfo(0x01 = Unknown)
T3208 000:399.191   Value=0x00000000
T3208 000:399.198 - 0.019ms returns 0x00
T3208 000:399.209 JLINK_ReadMemU32(0xE000ED00, 0x0001 Items, ...)
T3208 000:399.218   CPU_ReadMem(4 bytes @ 0xE000ED00)
T3208 000:399.793   Data:  31 C2 1F 41
T3208 000:399.809    - CPUID
T3208 000:399.816 - 0.609ms returns 1
T3208 000:399.823 JLINK_GetDebugInfo(0x10F = JLINKARM_DEBUG_INFO_HAS_CORTEX_M_SECURITY_EXT_INDEX)
T3208 000:399.829   Value=0x00000000
T3208 000:399.855 - 0.035ms returns 0x00
T3208 000:399.866 JLINK_SetResetType(JLINKARM_CM3_RESET_TYPE_NORMAL)
T3208 000:399.873 - 0.010ms returns JLINKARM_CM3_RESET_TYPE_NORMAL
T3208 000:399.881 JLINK_Reset()
T3208 000:399.908   CPU is running
T3208 000:399.919   CPU_WriteMem(4 bytes @ 0xE000EDF0)
T3208 000:400.579   CPU is running
T3208 000:400.603   CPU_WriteMem(4 bytes @ 0xE000EDFC)
T3208 000:405.511   Reset: Halt core after reset via DEMCR.VC_CORERESET.
T3208 000:410.049   Reset: Reset device via AIRCR.SYSRESETREQ.
T3208 000:410.071   CPU is running
T3208 000:410.081   CPU_WriteMem(4 bytes @ 0xE000ED0C)
T3208 000:463.596   CPU_ReadMem(4 bytes @ 0xE000EDF0)
T3208 000:464.239   CPU_ReadMem(4 bytes @ 0xE000EDF0)
T3208 000:464.873   CPU is running
T3208 000:464.900   CPU_WriteMem(4 bytes @ 0xE000EDF0)
T3208 000:465.564   CPU is running
T3208 000:465.577   CPU_WriteMem(4 bytes @ 0xE000EDFC)
T3208 000:471.862   CPU_ReadMem(4 bytes @ 0xE000EDF0)
T3208 000:476.184   CPU_WriteMem(4 bytes @ 0xE0002000)
T3208 000:476.800   CPU_ReadMem(4 bytes @ 0xE000EDFC)
T3208 000:477.388   CPU_ReadMem(4 bytes @ 0xE0001000)
T3208 000:478.020 - 78.147ms
T3208 000:478.040 JLINK_Halt()
T3208 000:478.052 - 0.015ms returns 0x00
T3208 000:478.061 JLINK_ReadMemU32(0xE000EDF0, 0x0001 Items, ...)
T3208 000:478.074   CPU_ReadMem(4 bytes @ 0xE000EDF0)
T3208 000:478.609   Data:  03 00 03 00
T3208 000:478.618    - DHCSR
T3208 000:478.626 - 0.567ms returns 1
T3208 000:478.635 JLINK_WriteU32(0xE000EDF0, 0xA05F0003)
T3208 000:478.640    - DHCSR
T3208 000:478.665   CPU_WriteMem(4 bytes @ 0xE000EDF0)
T3208 000:479.253 - 0.622ms returns 0
T3208 000:479.263 JLINK_WriteU32(0xE000EDFC, 0x01000000)
T3208 000:479.270    - DEMCR
T3208 000:479.281   CPU_WriteMem(4 bytes @ 0xE000EDFC)
T3208 000:479.919 - 0.662ms returns 0
T3208 000:495.130 JLINK_GetHWStatus(...)
T3208 000:495.468 - 0.342ms returns 0x00
T3208 000:505.653 JLINK_GetNumBPUnits(Type = 0xFFFFFF00)
T3208 000:505.672 - 0.022ms returns 0x06
T3208 000:505.679 JLINK_GetNumBPUnits(Type = 0xF0)
T3208 000:505.685 - 0.008ms returns 0x2000
T3208 000:505.692 JLINK_GetNumWPUnits()
T3208 000:505.697 - 0.007ms returns 0x04
T3208 000:515.785 JLINK_GetSpeed()
T3208 000:515.802 - 0.019ms returns 0xFA0
T3208 000:522.331 JLINK_ReadMemU32(0xE000E004, 0x0001 Items, ...)
T3208 000:522.360   CPU_ReadMem(4 bytes @ 0xE000E004)
T3208 000:523.021   Data:  01 00 00 00
T3208 000:523.047 - 0.718ms returns 1
T3208 000:523.059 JLINK_ReadMemU32(0xE000E004, 0x0001 Items, ...)
T3208 000:523.074   CPU_ReadMem(4 bytes @ 0xE000E004)
T3208 000:523.752   Data:  01 00 00 00
T3208 000:523.765 - 0.709ms returns 1
T3208 000:523.774 JLINK_WriteMemEx(0xE0001000, 0x001C Bytes, ..., Flags = 0x02000004)
T3208 000:523.781   Data:  01 00 00 00 00 00 00 00 00 00 00 00 00 00 00 00 ...
T3208 000:524.209   CPU_WriteMem(28 bytes @ 0xE0001000)
T3208 000:525.093 - 1.325ms returns 0x1C
T3208 000:525.113 JLINK_Halt()
T3208 000:525.119 - 0.009ms returns 0x00
T3208 000:525.125 JLINK_IsHalted()
T3208 000:525.132 - 0.009ms returns TRUE
T3208 000:533.141 JLINK_WriteMem(0x20000000, 0x0164 Bytes, ...)
T3208 000:533.157   Data:  00 BE 0A E0 0D 78 2D 06 68 40 08 24 40 00 00 D3 ...
T3208 000:533.465   CPU_WriteMem(356 bytes @ 0x20000000)
T3208 000:538.364 - 5.230ms returns 0x164
T3208 000:538.403 JLINK_WriteReg(R0, 0x08000000)
T3208 000:538.413 - 0.013ms returns 0x00
T3208 000:538.419 JLINK_WriteReg(R1, 0x00B71B00)
T3208 000:538.425 - 0.008ms returns 0x00
T3208 000:538.431 JLINK_WriteReg(R2, 0x00000001)
T3208 000:538.437 - 0.008ms returns 0x00
T3208 000:538.443 JLINK_WriteReg(R3, 0x00000000)
T3208 000:538.448 - 0.008ms returns 0x00
T3208 000:538.454 JLINK_WriteReg(R4, 0x00000000)
T3208 000:538.460 - 0.008ms returns 0x00
T3208 000:538.466 JLINK_WriteReg(R5, 0x00000000)
T3208 000:538.471 - 0.008ms returns 0x00
T3208 000:538.477 JLINK_WriteReg(R6, 0x00000000)
T3208 000:538.483 - 0.008ms returns 0x00
T3208 000:538.489 JLINK_WriteReg(R7, 0x00000000)
T3208 000:538.494 - 0.008ms returns 0x00
T3208 000:538.500 JLINK_WriteReg(R8, 0x00000000)
T3208 000:538.506 - 0.008ms returns 0x00
T3208 000:538.512 JLINK_WriteReg(R9, 0x20000160)
T3208 000:538.517 - 0.008ms returns 0x00
T3208 000:538.523 JLINK_WriteReg(R10, 0x00000000)
T3208 000:538.528 - 0.008ms returns 0x00
T3208 000:538.534 JLINK_WriteReg(R11, 0x00000000)
T3208 000:538.540 - 0.008ms returns 0x00
T3208 000:538.546 JLINK_WriteReg(R12, 0x00000000)
T3208 000:538.551 - 0.008ms returns 0x00
T3208 000:538.557 JLINK_WriteReg(R13 (SP), 0x20001000)
T3208 000:538.564 - 0.009ms returns 0x00
T3208 000:538.570 JLINK_WriteReg(R14, 0x20000001)
T3208 000:538.575 - 0.008ms returns 0x00
T3208 000:538.581 JLINK_WriteReg(R15 (PC), 0x20000038)
T3208 000:538.587 - 0.008ms returns 0x00
T3208 000:538.593 JLINK_WriteReg(XPSR, 0x01000000)
T3208 000:538.599 - 0.008ms returns 0x00
T3208 000:538.605 JLINK_WriteReg(MSP, 0x20001000)
T3208 000:538.610 - 0.008ms returns 0x00
T3208 000:538.616 JLINK_WriteReg(PSP, 0x20001000)
T3208 000:538.621 - 0.008ms returns 0x00
T3208 000:538.627 JLINK_WriteReg(CFBP, 0x00000000)
T3208 000:538.633 - 0.008ms returns 0x00
T3208 000:538.640   JLINK_SetBPEx(Addr = 0x20000000, Type = 0xFFFFFFF2)
T3208 000:538.659   CPU_ReadMem(2 bytes @ 0x20000000)
T3208 000:539.290 - 0.655ms returns 0x00000001
T3208 000:539.299 JLINK_Go()
T3208 000:539.310   CPU_WriteMem(2 bytes @ 0x20000000)
T3208 000:539.907   CPU_ReadMem(4 bytes @ 0xE0001000)
T3208 000:540.487   CPU_WriteMem(4 bytes @ 0xE0002008)
T3208 000:540.500   CPU_WriteMem(4 bytes @ 0xE000200C)
T3208 000:540.507   CPU_WriteMem(4 bytes @ 0xE0002010)
T3208 000:540.515   CPU_WriteMem(4 bytes @ 0xE0002014)
T3208 000:540.523   CPU_WriteMem(4 bytes @ 0xE0002018)
T3208 000:540.531   CPU_WriteMem(4 bytes @ 0xE000201C)
T3208 000:542.991   CPU_WriteMem(4 bytes @ 0xE0001004)
T3208 000:546.913 - 7.621ms
T3208 000:546.927 JLINK_IsHalted()
T3208 000:550.338   CPU_ReadMem(2 bytes @ 0x20000000)
T3208 000:550.913 - 3.990ms returns TRUE
T3208 000:550.923 JLINK_ReadReg(R15 (PC))
T3208 000:550.932 - 0.011ms returns 0x20000000
T3208 000:550.938 JLINK_ClrBPEx(BPHandle = 0x00000001)
T3208 000:550.944 - 0.008ms returns 0x00
T3208 000:550.951 JLINK_ReadReg(R0)
T3208 000:550.958 - 0.009ms returns 0x00000000
T3208 000:551.607 JLINK_WriteReg(R0, 0x08000000)
T3208 000:551.618 - 0.014ms returns 0x00
T3208 000:551.624 JLINK_WriteReg(R1, 0x00B71B00)
T3208 000:551.630 - 0.008ms returns 0x00
T3208 000:551.636 JLINK_WriteReg(R2, 0x00000001)
T3208 000:551.641 - 0.008ms returns 0x00
T3208 000:551.648 JLINK_WriteReg(R3, 0x00000000)
T3208 000:551.653 - 0.008ms returns 0x00
T3208 000:551.659 JLINK_WriteReg(R4, 0x00000000)
T3208 000:551.665 - 0.008ms returns 0x00
T3208 000:551.671 JLINK_WriteReg(R5, 0x00000000)
T3208 000:551.676 - 0.008ms returns 0x00
T3208 000:551.682 JLINK_WriteReg(R6, 0x00000000)
T3208 000:551.688 - 0.008ms returns 0x00
T3208 000:551.694 JLINK_WriteReg(R7, 0x00000000)
T3208 000:551.699 - 0.008ms returns 0x00
T3208 000:551.705 JLINK_WriteReg(R8, 0x00000000)
T3208 000:551.711 - 0.008ms returns 0x00
T3208 000:551.717 JLINK_WriteReg(R9, 0x20000160)
T3208 000:551.722 - 0.008ms returns 0x00
T3208 000:551.728 JLINK_WriteReg(R10, 0x00000000)
T3208 000:551.734 - 0.008ms returns 0x00
T3208 000:551.740 JLINK_WriteReg(R11, 0x00000000)
T3208 000:551.745 - 0.008ms returns 0x00
T3208 000:551.751 JLINK_WriteReg(R12, 0x00000000)
T3208 000:551.757 - 0.008ms returns 0x00
T3208 000:551.763 JLINK_WriteReg(R13 (SP), 0x20001000)
T3208 000:551.769 - 0.008ms returns 0x00
T3208 000:551.775 JLINK_WriteReg(R14, 0x20000001)
T3208 000:551.780 - 0.008ms returns 0x00
T3208 000:551.786 JLINK_WriteReg(R15 (PC), 0x2000007C)
T3208 000:551.792 - 0.008ms returns 0x00
T3208 000:551.798 JLINK_WriteReg(XPSR, 0x01000000)
T3208 000:551.803 - 0.008ms returns 0x00
T3208 000:551.809 JLINK_WriteReg(MSP, 0x20001000)
T3208 000:551.815 - 0.008ms returns 0x00
T3208 000:551.821 JLINK_WriteReg(PSP, 0x20001000)
T3208 000:551.826 - 0.008ms returns 0x00
T3208 000:551.832 JLINK_WriteReg(CFBP, 0x00000000)
T3208 000:551.838 - 0.008ms returns 0x00
T3208 000:551.845   JLINK_SetBPEx(Addr = 0x20000000, Type = 0xFFFFFFF2)
T3208 000:551.853 - 0.011ms returns 0x00000002
T3208 000:551.859 JLINK_Go()
T3208 000:551.876   CPU_ReadMem(4 bytes @ 0xE0001000)
T3208 000:555.742 - 3.890ms
T3208 000:555.758 JLINK_IsHalted()
T3208 000:556.310 - 0.559ms returns FALSE
T3208 000:579.912 JLINK_IsHalted()
T3208 000:583.361   CPU_ReadMem(2 bytes @ 0x20000000)
T3208 000:583.992 - 4.088ms returns TRUE
T3208 000:584.013 JLINK_ReadReg(R15 (PC))
T3208 000:584.025 - 0.015ms returns 0x20000000
T3208 000:584.035 JLINK_ClrBPEx(BPHandle = 0x00000002)
T3208 000:584.043 - 0.011ms returns 0x00
T3208 000:584.053 JLINK_ReadReg(R0)
T3208 000:584.060 - 0.010ms returns 0x00000000
T3208 000:636.053 JLINK_WriteReg(R0, 0x00000001)
T3208 000:636.084 - 0.035ms returns 0x00
T3208 000:636.091 JLINK_WriteReg(R1, 0x00B71B00)
T3208 000:636.097 - 0.008ms returns 0x00
T3208 000:636.103 JLINK_WriteReg(R2, 0x00000001)
T3208 000:636.109 - 0.008ms returns 0x00
T3208 000:636.115 JLINK_WriteReg(R3, 0x00000000)
T3208 000:636.120 - 0.008ms returns 0x00
T3208 000:636.126 JLINK_WriteReg(R4, 0x00000000)
T3208 000:636.132 - 0.076ms returns 0x00
T3208 000:636.210 JLINK_WriteReg(R5, 0x00000000)
T3208 000:636.216 - 0.008ms returns 0x00
T3208 000:636.222 JLINK_WriteReg(R6, 0x00000000)
T3208 000:636.227 - 0.008ms returns 0x00
T3208 000:636.233 JLINK_WriteReg(R7, 0x00000000)
T3208 000:636.239 - 0.008ms returns 0x00
T3208 000:636.245 JLINK_WriteReg(R8, 0x00000000)
T3208 000:636.250 - 0.008ms returns 0x00
T3208 000:636.256 JLINK_WriteReg(R9, 0x20000160)
T3208 000:636.262 - 0.008ms returns 0x00
T3208 000:636.268 JLINK_WriteReg(R10, 0x00000000)
T3208 000:636.273 - 0.008ms returns 0x00
T3208 000:636.279 JLINK_WriteReg(R11, 0x00000000)
T3208 000:636.285 - 0.008ms returns 0x00
T3208 000:636.291 JLINK_WriteReg(R12, 0x00000000)
T3208 000:636.296 - 0.008ms returns 0x00
T3208 000:636.302 JLINK_WriteReg(R13 (SP), 0x20001000)
T3208 000:636.309 - 0.009ms returns 0x00
T3208 000:636.315 JLINK_WriteReg(R14, 0x20000001)
T3208 000:636.320 - 0.008ms returns 0x00
T3208 000:636.326 JLINK_WriteReg(R15 (PC), 0x2000006A)
T3208 000:636.332 - 0.008ms returns 0x00
T3208 000:636.338 JLINK_WriteReg(XPSR, 0x01000000)
T3208 000:636.343 - 0.008ms returns 0x00
T3208 000:636.349 JLINK_WriteReg(MSP, 0x20001000)
T3208 000:636.355 - 0.008ms returns 0x00
T3208 000:636.361 JLINK_WriteReg(PSP, 0x20001000)
T3208 000:636.366 - 0.008ms returns 0x00
T3208 000:636.372 JLINK_WriteReg(CFBP, 0x00000000)
T3208 000:636.378 - 0.008ms returns 0x00
T3208 000:636.384   JLINK_SetBPEx(Addr = 0x20000000, Type = 0xFFFFFFF2)
T3208 000:636.394 - 0.012ms returns 0x00000003
T3208 000:636.400 JLINK_Go()
T3208 000:636.418   CPU_ReadMem(4 bytes @ 0xE0001000)
T3208 000:640.317 - 3.924ms
T3208 000:640.330 JLINK_IsHalted()
T3208 000:643.682   CPU_ReadMem(2 bytes @ 0x20000000)
T3208 000:644.261 - 3.938ms returns TRUE
T3208 000:644.274 JLINK_ReadReg(R15 (PC))
T3208 000:644.282 - 0.011ms returns 0x20000000
T3208 000:644.289 JLINK_ClrBPEx(BPHandle = 0x00000003)
T3208 000:644.295 - 0.009ms returns 0x00
T3208 000:644.302 JLINK_ReadReg(R0)
T3208 000:644.308 - 0.008ms returns 0x00000000
T3208 000:650.545 JLINK_WriteMem(0x20000000, 0x0164 Bytes, ...)
T3208 000:650.558   Data:  00 BE 0A E0 0D 78 2D 06 68 40 08 24 40 00 00 D3 ...
T3208 000:650.578   CPU_WriteMem(356 bytes @ 0x20000000)
T3208 000:655.414 - 4.878ms returns 0x164
T3208 000:655.454 JLINK_WriteReg(R0, 0x08000000)
T3208 000:655.463 - 0.012ms returns 0x00
T3208 000:655.469 JLINK_WriteReg(R1, 0x00B71B00)
T3208 000:655.475 - 0.008ms returns 0x00
T3208 000:655.481 JLINK_WriteReg(R2, 0x00000002)
T3208 000:655.486 - 0.008ms returns 0x00
T3208 000:655.492 JLINK_WriteReg(R3, 0x00000000)
T3208 000:655.498 - 0.008ms returns 0x00
T3208 000:655.504 JLINK_WriteReg(R4, 0x00000000)
T3208 000:655.509 - 0.008ms returns 0x00
T3208 000:655.515 JLINK_WriteReg(R5, 0x00000000)
T3208 000:655.521 - 0.008ms returns 0x00
T3208 000:655.527 JLINK_WriteReg(R6, 0x00000000)
T3208 000:655.532 - 0.008ms returns 0x00
T3208 000:655.538 JLINK_WriteReg(R7, 0x00000000)
T3208 000:655.544 - 0.008ms returns 0x00
T3208 000:655.550 JLINK_WriteReg(R8, 0x00000000)
T3208 000:655.555 - 0.008ms returns 0x00
T3208 000:655.561 JLINK_WriteReg(R9, 0x20000160)
T3208 000:655.567 - 0.008ms returns 0x00
T3208 000:655.573 JLINK_WriteReg(R10, 0x00000000)
T3208 000:655.578 - 0.008ms returns 0x00
T3208 000:655.584 JLINK_WriteReg(R11, 0x00000000)
T3208 000:655.590 - 0.008ms returns 0x00
T3208 000:655.596 JLINK_WriteReg(R12, 0x00000000)
T3208 000:655.601 - 0.008ms returns 0x00
T3208 000:655.607 JLINK_WriteReg(R13 (SP), 0x20001000)
T3208 000:655.614 - 0.009ms returns 0x00
T3208 000:655.620 JLINK_WriteReg(R14, 0x20000001)
T3208 000:655.625 - 0.008ms returns 0x00
T3208 000:655.632 JLINK_WriteReg(R15 (PC), 0x20000038)
T3208 000:655.637 - 0.008ms returns 0x00
T3208 000:655.643 JLINK_WriteReg(XPSR, 0x01000000)
T3208 000:655.649 - 0.008ms returns 0x00
T3208 000:655.655 JLINK_WriteReg(MSP, 0x20001000)
T3208 000:655.660 - 0.008ms returns 0x00
T3208 000:655.667 JLINK_WriteReg(PSP, 0x20001000)
T3208 000:655.672 - 0.008ms returns 0x00
T3208 000:655.678 JLINK_WriteReg(CFBP, 0x00000000)
T3208 000:655.692 - 0.016ms returns 0x00
T3208 000:655.699   JLINK_SetBPEx(Addr = 0x20000000, Type = 0xFFFFFFF2)
T3208 000:655.712   CPU_ReadMem(2 bytes @ 0x20000000)
T3208 000:656.288 - 0.594ms returns 0x00000004
T3208 000:656.297 JLINK_Go()
T3208 000:656.305   CPU_WriteMem(2 bytes @ 0x20000000)
T3208 000:656.944   CPU_ReadMem(4 bytes @ 0xE0001000)
T3208 000:660.858 - 4.571ms
T3208 000:660.876 JLINK_IsHalted()
T3208 000:664.298   CPU_ReadMem(2 bytes @ 0x20000000)
T3208 000:664.913 - 4.044ms returns TRUE
T3208 000:664.928 JLINK_ReadReg(R15 (PC))
T3208 000:664.936 - 0.010ms returns 0x20000000
T3208 000:664.943 JLINK_ClrBPEx(BPHandle = 0x00000004)
T3208 000:664.949 - 0.008ms returns 0x00
T3208 000:664.956 JLINK_ReadReg(R0)
T3208 000:664.962 - 0.008ms returns 0x00000000
T3208 000:665.317 JLINK_WriteMem(0x20000164, 0x029C Bytes, ...)
T3208 000:665.326   Data:  D0 12 00 20 45 01 00 08 E7 18 00 08 D5 15 00 08 ...
T3208 000:665.341   CPU_WriteMem(668 bytes @ 0x20000164)
T3208 000:673.874 - 8.576ms returns 0x29C
T3208 000:673.913 JLINK_WriteMem(0x20000400, 0x0164 Bytes, ...)
T3208 000:673.920   Data:  00 F1 80 70 00 EB C3 50 A0 F1 80 70 40 EA D1 70 ...
T3208 000:673.943   CPU_WriteMem(356 bytes @ 0x20000400)
T3208 000:678.766 - 4.864ms returns 0x164
T3208 000:678.786 JLINK_WriteReg(R0, 0x08000000)
T3208 000:678.796 - 0.013ms returns 0x00
T3208 000:678.803 JLINK_WriteReg(R1, 0x00000400)
T3208 000:678.810 - 0.009ms returns 0x00
T3208 000:678.818 JLINK_WriteReg(R2, 0x20000164)
T3208 000:678.824 - 0.008ms returns 0x00
T3208 000:678.830 JLINK_WriteReg(R3, 0x00000000)
T3208 000:678.835 - 0.008ms returns 0x00
T3208 000:678.841 JLINK_WriteReg(R4, 0x00000000)
T3208 000:678.847 - 0.008ms returns 0x00
T3208 000:678.853 JLINK_WriteReg(R5, 0x00000000)
T3208 000:678.858 - 0.008ms returns 0x00
T3208 000:678.864 JLINK_WriteReg(R6, 0x00000000)
T3208 000:678.870 - 0.008ms returns 0x00
T3208 000:678.876 JLINK_WriteReg(R7, 0x00000000)
T3208 000:678.881 - 0.008ms returns 0x00
T3208 000:678.887 JLINK_WriteReg(R8, 0x00000000)
T3208 000:678.893 - 0.008ms returns 0x00
T3208 000:678.901 JLINK_WriteReg(R9, 0x20000160)
T3208 000:678.907 - 0.008ms returns 0x00
T3208 000:678.913 JLINK_WriteReg(R10, 0x00000000)
T3208 000:678.918 - 0.008ms returns 0x00
T3208 000:678.924 JLINK_WriteReg(R11, 0x00000000)
T3208 000:678.930 - 0.008ms returns 0x00
T3208 000:678.936 JLINK_WriteReg(R12, 0x00000000)
T3208 000:678.941 - 0.008ms returns 0x00
T3208 000:678.947 JLINK_WriteReg(R13 (SP), 0x20001000)
T3208 000:678.953 - 0.009ms returns 0x00
T3208 000:678.959 JLINK_WriteReg(R14, 0x20000001)
T3208 000:678.965 - 0.008ms returns 0x00
T3208 000:678.971 JLINK_WriteReg(R15 (PC), 0x200000F4)
T3208 000:678.976 - 0.008ms returns 0x00
T3208 000:678.982 JLINK_WriteReg(XPSR, 0x01000000)
T3208 000:678.988 - 0.008ms returns 0x00
T3208 000:678.994 JLINK_WriteReg(MSP, 0x20001000)
T3208 000:679.000 - 0.008ms returns 0x00
T3208 000:679.006 JLINK_WriteReg(PSP, 0x20001000)
T3208 000:679.011 - 0.008ms returns 0x00
T3208 000:679.017 JLINK_WriteReg(CFBP, 0x00000000)
T3208 000:679.023 - 0.008ms returns 0x00
T3208 000:679.029   JLINK_SetBPEx(Addr = 0x20000000, Type = 0xFFFFFFF2)
T3208 000:679.038 - 0.011ms returns 0x00000005
T3208 000:679.044 JLINK_Go()
T3208 000:679.058   CPU_ReadMem(4 bytes @ 0xE0001000)
T3208 000:682.950 - 3.916ms
T3208 000:682.967 JLINK_IsHalted()
T3208 000:683.507 - 0.545ms returns FALSE
T3208 000:688.905 JLINK_IsHalted()
T3208 000:689.464 - 0.563ms returns FALSE
T3208 000:690.908 JLINK_IsHalted()
T3208 000:691.464 - 0.563ms returns FALSE
T3208 000:693.913 JLINK_IsHalted()
T3208 000:694.534 - 0.629ms returns FALSE
T3208 000:695.910 JLINK_IsHalted()
T3208 000:696.464 - 0.560ms returns FALSE
T3208 000:699.912 JLINK_IsHalted()
T3208 000:700.463 - 0.558ms returns FALSE
T3208 000:702.910 JLINK_IsHalted()
T3208 000:703.509 - 0.603ms returns FALSE
T3208 000:704.910 JLINK_IsHalted()
T3208 000:705.462 - 0.559ms returns FALSE
T3208 000:706.910 JLINK_IsHalted()
T3208 000:707.459 - 0.557ms returns FALSE
T3208 000:708.914 JLINK_IsHalted()
T3208 000:709.480 - 0.574ms returns FALSE
T3208 000:710.913 JLINK_IsHalted()
T3208 000:711.480 - 0.571ms returns FALSE
T3208 000:712.911 JLINK_IsHalted()
T3208 000:713.461 - 0.553ms returns FALSE
T3208 000:716.913 JLINK_IsHalted()
T3208 000:720.362   CPU_ReadMem(2 bytes @ 0x20000000)
T3208 000:720.965 - 4.055ms returns TRUE
T3208 000:720.974 JLINK_ReadReg(R15 (PC))
T3208 000:720.983 - 0.011ms returns 0x20000000
T3208 000:720.989 JLINK_ClrBPEx(BPHandle = 0x00000005)
T3208 000:720.995 - 0.008ms returns 0x00
T3208 000:721.002 JLINK_ReadReg(R0)
T3208 000:721.007 - 0.008ms returns 0x00000000
T3208 000:721.515 JLINK_WriteMem(0x20000164, 0x029C Bytes, ...)
T3208 000:721.525   Data:  00 1B 61 EB 02 01 4F F0 00 42 02 EA 07 52 CD E9 ...
T3208 000:721.540   CPU_WriteMem(668 bytes @ 0x20000164)
T3208 000:729.861 - 8.352ms returns 0x29C
T3208 000:729.873 JLINK_WriteMem(0x20000400, 0x0164 Bytes, ...)
T3208 000:729.880   Data:  02 51 70 BD C1 0F 80 EA E0 70 08 44 CA 07 96 23 ...
T3208 000:729.893   CPU_WriteMem(356 bytes @ 0x20000400)
T3208 000:734.718 - 4.852ms returns 0x164
T3208 000:734.734 JLINK_WriteReg(R0, 0x08000400)
T3208 000:734.743 - 0.012ms returns 0x00
T3208 000:734.749 JLINK_WriteReg(R1, 0x00000400)
T3208 000:734.755 - 0.008ms returns 0x00
T3208 000:734.762 JLINK_WriteReg(R2, 0x20000164)
T3208 000:734.768 - 0.008ms returns 0x00
T3208 000:734.774 JLINK_WriteReg(R3, 0x00000000)
T3208 000:734.780 - 0.008ms returns 0x00
T3208 000:734.786 JLINK_WriteReg(R4, 0x00000000)
T3208 000:734.792 - 0.008ms returns 0x00
T3208 000:734.799 JLINK_WriteReg(R5, 0x00000000)
T3208 000:734.805 - 0.008ms returns 0x00
T3208 000:734.811 JLINK_WriteReg(R6, 0x00000000)
T3208 000:734.817 - 0.008ms returns 0x00
T3208 000:734.823 JLINK_WriteReg(R7, 0x00000000)
T3208 000:734.829 - 0.008ms returns 0x00
T3208 000:734.835 JLINK_WriteReg(R8, 0x00000000)
T3208 000:734.841 - 0.008ms returns 0x00
T3208 000:734.848 JLINK_WriteReg(R9, 0x20000160)
T3208 000:734.854 - 0.008ms returns 0x00
T3208 000:734.860 JLINK_WriteReg(R10, 0x00000000)
T3208 000:734.866 - 0.008ms returns 0x00
T3208 000:734.872 JLINK_WriteReg(R11, 0x00000000)
T3208 000:734.878 - 0.008ms returns 0x00
T3208 000:734.885 JLINK_WriteReg(R12, 0x00000000)
T3208 000:734.891 - 0.008ms returns 0x00
T3208 000:734.897 JLINK_WriteReg(R13 (SP), 0x20001000)
T3208 000:734.903 - 0.009ms returns 0x00
T3208 000:734.915 JLINK_WriteReg(R14, 0x20000001)
T3208 000:734.922 - 0.010ms returns 0x00
T3208 000:734.930 JLINK_WriteReg(R15 (PC), 0x200000F4)
T3208 000:734.936 - 0.008ms returns 0x00
T3208 000:734.942 JLINK_WriteReg(XPSR, 0x01000000)
T3208 000:734.948 - 0.008ms returns 0x00
T3208 000:734.954 JLINK_WriteReg(MSP, 0x20001000)
T3208 000:734.959 - 0.008ms returns 0x00
T3208 000:734.965 JLINK_WriteReg(PSP, 0x20001000)
T3208 000:734.971 - 0.008ms returns 0x00
T3208 000:734.977 JLINK_WriteReg(CFBP, 0x00000000)
T3208 000:734.982 - 0.008ms returns 0x00
T3208 000:734.989   JLINK_SetBPEx(Addr = 0x20000000, Type = 0xFFFFFFF2)
T3208 000:734.997 - 0.011ms returns 0x00000006
T3208 000:735.004 JLINK_Go()
T3208 000:735.016   CPU_ReadMem(4 bytes @ 0xE0001000)
T3208 000:738.883 - 3.886ms
T3208 000:738.895 JLINK_IsHalted()
T3208 000:739.460 - 0.568ms returns FALSE
T3208 000:744.930 JLINK_IsHalted()
T3208 000:745.508 - 0.585ms returns FALSE
T3208 000:746.918 JLINK_IsHalted()
T3208 000:747.502 - 0.589ms returns FALSE
T3208 000:748.926 JLINK_IsHalted()
T3208 000:749.480 - 0.562ms returns FALSE
T3208 000:750.920 JLINK_IsHalted()
T3208 000:751.507 - 0.591ms returns FALSE
T3208 000:752.920 JLINK_IsHalted()
T3208 000:753.533 - 0.617ms returns FALSE
T3208 000:755.924 JLINK_IsHalted()
T3208 000:756.481 - 0.565ms returns FALSE
T3208 000:757.923 JLINK_IsHalted()
T3208 000:758.529 - 0.613ms returns FALSE
T3208 000:759.930 JLINK_IsHalted()
T3208 000:760.479 - 0.557ms returns FALSE
T3208 000:762.922 JLINK_IsHalted()
T3208 000:763.461 - 0.543ms returns FALSE
T3208 000:764.926 JLINK_IsHalted()
T3208 000:765.479 - 0.564ms returns FALSE
T3208 000:767.929 JLINK_IsHalted()
T3208 000:768.534 - 0.613ms returns FALSE
T3208 000:769.927 JLINK_IsHalted()
T3208 000:773.406   CPU_ReadMem(2 bytes @ 0x20000000)
T3208 000:773.985 - 4.065ms returns TRUE
T3208 000:774.000 JLINK_ReadReg(R15 (PC))
T3208 000:774.010 - 0.012ms returns 0x20000000
T3208 000:774.016 JLINK_ClrBPEx(BPHandle = 0x00000006)
T3208 000:774.022 - 0.008ms returns 0x00
T3208 000:774.029 JLINK_ReadReg(R0)
T3208 000:774.034 - 0.008ms returns 0x00000000
T3208 000:774.490 JLINK_WriteMem(0x20000164, 0x029C Bytes, ...)
T3208 000:774.500   Data:  30 B5 04 1E 71 F1 00 04 04 DB 4F F0 00 44 40 42 ...
T3208 000:774.515   CPU_WriteMem(668 bytes @ 0x20000164)
T3208 000:782.940 - 8.457ms returns 0x29C
T3208 000:782.955 JLINK_WriteMem(0x20000400, 0x0164 Bytes, ...)
T3208 000:782.963   Data:  01 00 19 D0 C8 F1 40 02 50 46 FF F7 3F FF 05 46 ...
T3208 000:782.979   CPU_WriteMem(356 bytes @ 0x20000400)
T3208 000:787.807 - 4.859ms returns 0x164
T3208 000:787.822 JLINK_WriteReg(R0, 0x08000800)
T3208 000:787.830 - 0.011ms returns 0x00
T3208 000:787.836 JLINK_WriteReg(R1, 0x00000400)
T3208 000:787.842 - 0.008ms returns 0x00
T3208 000:787.848 JLINK_WriteReg(R2, 0x20000164)
T3208 000:787.854 - 0.008ms returns 0x00
T3208 000:787.860 JLINK_WriteReg(R3, 0x00000000)
T3208 000:787.866 - 0.008ms returns 0x00
T3208 000:787.872 JLINK_WriteReg(R4, 0x00000000)
T3208 000:787.877 - 0.008ms returns 0x00
T3208 000:787.883 JLINK_WriteReg(R5, 0x00000000)
T3208 000:787.889 - 0.008ms returns 0x00
T3208 000:787.895 JLINK_WriteReg(R6, 0x00000000)
T3208 000:787.900 - 0.008ms returns 0x00
T3208 000:787.906 JLINK_WriteReg(R7, 0x00000000)
T3208 000:787.912 - 0.008ms returns 0x00
T3208 000:787.918 JLINK_WriteReg(R8, 0x00000000)
T3208 000:787.929 - 0.018ms returns 0x00
T3208 000:787.942 JLINK_WriteReg(R9, 0x20000160)
T3208 000:787.951 - 0.011ms returns 0x00
T3208 000:787.959 JLINK_WriteReg(R10, 0x00000000)
T3208 000:787.967 - 0.011ms returns 0x00
T3208 000:787.974 JLINK_WriteReg(R11, 0x00000000)
T3208 000:787.982 - 0.011ms returns 0x00
T3208 000:787.990 JLINK_WriteReg(R12, 0x00000000)
T3208 000:787.997 - 0.009ms returns 0x00
T3208 000:788.004 JLINK_WriteReg(R13 (SP), 0x20001000)
T3208 000:788.011 - 0.010ms returns 0x00
T3208 000:788.018 JLINK_WriteReg(R14, 0x20000001)
T3208 000:788.024 - 0.009ms returns 0x00
T3208 000:788.031 JLINK_WriteReg(R15 (PC), 0x200000F4)
T3208 000:788.038 - 0.009ms returns 0x00
T3208 000:788.045 JLINK_WriteReg(XPSR, 0x01000000)
T3208 000:788.052 - 0.009ms returns 0x00
T3208 000:788.059 JLINK_WriteReg(MSP, 0x20001000)
T3208 000:788.065 - 0.009ms returns 0x00
T3208 000:788.072 JLINK_WriteReg(PSP, 0x20001000)
T3208 000:788.079 - 0.009ms returns 0x00
T3208 000:788.086 JLINK_WriteReg(CFBP, 0x00000000)
T3208 000:788.093 - 0.009ms returns 0x00
T3208 000:788.100   JLINK_SetBPEx(Addr = 0x20000000, Type = 0xFFFFFFF2)
T3208 000:788.111 - 0.014ms returns 0x00000007
T3208 000:788.118 JLINK_Go()
T3208 000:788.132   CPU_ReadMem(4 bytes @ 0xE0001000)
T3208 000:791.987 - 3.879ms
T3208 000:792.007 JLINK_IsHalted()
T3208 000:792.560 - 0.560ms returns FALSE
T3208 000:799.935 JLINK_IsHalted()
T3208 000:800.562 - 0.638ms returns FALSE
T3208 000:803.934 JLINK_IsHalted()
T3208 000:804.479 - 0.554ms returns FALSE
T3208 000:805.933 JLINK_IsHalted()
T3208 000:806.506 - 0.580ms returns FALSE
T3208 000:808.969 JLINK_IsHalted()
T3208 000:809.534 - 0.571ms returns FALSE
T3208 000:811.935 JLINK_IsHalted()
T3208 000:812.479 - 0.548ms returns FALSE
T3208 000:814.935 JLINK_IsHalted()
T3208 000:815.504 - 0.576ms returns FALSE
T3208 000:816.979 JLINK_IsHalted()
T3208 000:817.583 - 0.613ms returns FALSE
T3208 000:818.934 JLINK_IsHalted()
T3208 000:819.480 - 0.550ms returns FALSE
T3208 000:822.936 JLINK_IsHalted()
T3208 000:826.369   CPU_ReadMem(2 bytes @ 0x20000000)
T3208 000:826.981 - 4.050ms returns TRUE
T3208 000:826.993 JLINK_ReadReg(R15 (PC))
T3208 000:827.003 - 0.012ms returns 0x20000000
T3208 000:827.009 JLINK_ClrBPEx(BPHandle = 0x00000007)
T3208 000:827.083 - 0.080ms returns 0x00
T3208 000:827.094 JLINK_ReadReg(R0)
T3208 000:827.100 - 0.008ms returns 0x00000000
T3208 000:827.596 JLINK_WriteMem(0x20000164, 0x029C Bytes, ...)
T3208 000:827.605   Data:  9C 68 00 08 2D E9 F0 5F 82 46 00 78 00 27 15 46 ...
T3208 000:827.620   CPU_WriteMem(668 bytes @ 0x20000164)
T3208 000:836.064 - 8.476ms returns 0x29C
T3208 000:836.078 JLINK_WriteMem(0x20000400, 0x0164 Bytes, ...)
T3208 000:836.085   Data:  CD E9 05 10 02 99 A1 EB 08 00 FF F7 1A FC CD E9 ...
T3208 000:836.097   CPU_WriteMem(356 bytes @ 0x20000400)
T3208 000:840.883 - 4.811ms returns 0x164
T3208 000:840.897 JLINK_WriteReg(R0, 0x08000C00)
T3208 000:840.905 - 0.010ms returns 0x00
T3208 000:840.911 JLINK_WriteReg(R1, 0x00000400)
T3208 000:840.917 - 0.008ms returns 0x00
T3208 000:840.923 JLINK_WriteReg(R2, 0x20000164)
T3208 000:840.928 - 0.008ms returns 0x00
T3208 000:840.985 JLINK_WriteReg(R3, 0x00000000)
T3208 000:840.995 - 0.014ms returns 0x00
T3208 000:841.003 JLINK_WriteReg(R4, 0x00000000)
T3208 000:841.010 - 0.011ms returns 0x00
T3208 000:841.019 JLINK_WriteReg(R5, 0x00000000)
T3208 000:841.026 - 0.010ms returns 0x00
T3208 000:841.034 JLINK_WriteReg(R6, 0x00000000)
T3208 000:841.041 - 0.010ms returns 0x00
T3208 000:841.049 JLINK_WriteReg(R7, 0x00000000)
T3208 000:841.057 - 0.011ms returns 0x00
T3208 000:841.065 JLINK_WriteReg(R8, 0x00000000)
T3208 000:841.073 - 0.011ms returns 0x00
T3208 000:841.081 JLINK_WriteReg(R9, 0x20000160)
T3208 000:841.088 - 0.010ms returns 0x00
T3208 000:841.096 JLINK_WriteReg(R10, 0x00000000)
T3208 000:841.104 - 0.011ms returns 0x00
T3208 000:841.112 JLINK_WriteReg(R11, 0x00000000)
T3208 000:841.120 - 0.012ms returns 0x00
T3208 000:841.129 JLINK_WriteReg(R12, 0x00000000)
T3208 000:841.138 - 0.013ms returns 0x00
T3208 000:841.148 JLINK_WriteReg(R13 (SP), 0x20001000)
T3208 000:841.157 - 0.013ms returns 0x00
T3208 000:841.167 JLINK_WriteReg(R14, 0x20000001)
T3208 000:841.175 - 0.011ms returns 0x00
T3208 000:841.183 JLINK_WriteReg(R15 (PC), 0x200000F4)
T3208 000:841.191 - 0.011ms returns 0x00
T3208 000:841.199 JLINK_WriteReg(XPSR, 0x01000000)
T3208 000:841.207 - 0.011ms returns 0x00
T3208 000:841.215 JLINK_WriteReg(MSP, 0x20001000)
T3208 000:841.222 - 0.010ms returns 0x00
T3208 000:841.232 JLINK_WriteReg(PSP, 0x20001000)
T3208 000:841.239 - 0.011ms returns 0x00
T3208 000:841.248 JLINK_WriteReg(CFBP, 0x00000000)
T3208 000:841.255 - 0.010ms returns 0x00
T3208 000:841.264   JLINK_SetBPEx(Addr = 0x20000000, Type = 0xFFFFFFF2)
T3208 000:841.275 - 0.015ms returns 0x00000008
T3208 000:841.283 JLINK_Go()
T3208 000:841.299   CPU_ReadMem(4 bytes @ 0xE0001000)
T3208 000:845.186 - 3.911ms
T3208 000:845.202 JLINK_IsHalted()
T3208 000:845.785 - 0.587ms returns FALSE
T3208 000:848.944 JLINK_IsHalted()
T3208 000:849.531 - 0.596ms returns FALSE
T3208 000:850.944 JLINK_IsHalted()
T3208 000:851.506 - 0.567ms returns FALSE
T3208 000:853.948 JLINK_IsHalted()
T3208 000:854.478 - 0.539ms returns FALSE
T3208 000:857.006 JLINK_IsHalted()
T3208 000:857.605 - 0.606ms returns FALSE
T3208 000:858.948 JLINK_IsHalted()
T3208 000:859.568 - 0.624ms returns FALSE
T3208 000:862.948 JLINK_IsHalted()
T3208 000:863.508 - 0.566ms returns FALSE
T3208 000:864.958 JLINK_IsHalted()
T3208 000:865.561 - 0.608ms returns FALSE
T3208 000:868.945 JLINK_IsHalted()
T3208 000:869.505 - 0.564ms returns FALSE
T3208 000:870.948 JLINK_IsHalted()
T3208 000:871.504 - 0.560ms returns FALSE
T3208 000:873.953 JLINK_IsHalted()
T3208 000:874.587 - 0.641ms returns FALSE
T3208 000:876.950 JLINK_IsHalted()
T3208 000:880.330   CPU_ReadMem(2 bytes @ 0x20000000)
T3208 000:880.968 - 4.027ms returns TRUE
T3208 000:880.984 JLINK_ReadReg(R15 (PC))
T3208 000:880.995 - 0.013ms returns 0x20000000
T3208 000:881.002 JLINK_ClrBPEx(BPHandle = 0x00000008)
T3208 000:881.008 - 0.009ms returns 0x00
T3208 000:881.015 JLINK_ReadReg(R0)
T3208 000:881.021 - 0.008ms returns 0x00000000
T3208 000:881.496 JLINK_WriteMem(0x20000164, 0x029C Bytes, ...)
T3208 000:881.507   Data:  02 28 05 D0 00 24 03 28 07 D0 01 28 2D D0 42 E0 ...
T3208 000:881.532   CPU_WriteMem(668 bytes @ 0x20000164)
T3208 000:889.940 - 8.459ms returns 0x29C
T3208 000:889.966 JLINK_WriteMem(0x20000400, 0x0164 Bytes, ...)
T3208 000:889.974   Data:  40 F0 40 00 20 61 30 46 00 F0 58 F8 21 69 41 F6 ...
T3208 000:889.987   CPU_WriteMem(356 bytes @ 0x20000400)
T3208 000:894.785 - 4.827ms returns 0x164
T3208 000:894.803 JLINK_WriteReg(R0, 0x08001000)
T3208 000:894.811 - 0.011ms returns 0x00
T3208 000:894.818 JLINK_WriteReg(R1, 0x00000400)
T3208 000:894.823 - 0.008ms returns 0x00
T3208 000:894.830 JLINK_WriteReg(R2, 0x20000164)
T3208 000:894.837 - 0.010ms returns 0x00
T3208 000:894.845 JLINK_WriteReg(R3, 0x00000000)
T3208 000:894.851 - 0.010ms returns 0x00
T3208 000:894.859 JLINK_WriteReg(R4, 0x00000000)
T3208 000:894.865 - 0.009ms returns 0x00
T3208 000:894.873 JLINK_WriteReg(R5, 0x00000000)
T3208 000:894.879 - 0.010ms returns 0x00
T3208 000:894.887 JLINK_WriteReg(R6, 0x00000000)
T3208 000:894.892 - 0.008ms returns 0x00
T3208 000:894.898 JLINK_WriteReg(R7, 0x00000000)
T3208 000:894.904 - 0.008ms returns 0x00
T3208 000:894.910 JLINK_WriteReg(R8, 0x00000000)
T3208 000:894.915 - 0.008ms returns 0x00
T3208 000:894.921 JLINK_WriteReg(R9, 0x20000160)
T3208 000:894.927 - 0.008ms returns 0x00
T3208 000:894.933 JLINK_WriteReg(R10, 0x00000000)
T3208 000:894.938 - 0.008ms returns 0x00
T3208 000:894.944 JLINK_WriteReg(R11, 0x00000000)
T3208 000:894.958 - 0.016ms returns 0x00
T3208 000:894.965 JLINK_WriteReg(R12, 0x00000000)
T3208 000:894.970 - 0.008ms returns 0x00
T3208 000:894.979 JLINK_WriteReg(R13 (SP), 0x20001000)
T3208 000:894.986 - 0.009ms returns 0x00
T3208 000:894.993 JLINK_WriteReg(R14, 0x20000001)
T3208 000:894.999 - 0.008ms returns 0x00
T3208 000:895.006 JLINK_WriteReg(R15 (PC), 0x200000F4)
T3208 000:895.011 - 0.008ms returns 0x00
T3208 000:895.019 JLINK_WriteReg(XPSR, 0x01000000)
T3208 000:895.024 - 0.008ms returns 0x00
T3208 000:895.032 JLINK_WriteReg(MSP, 0x20001000)
T3208 000:895.037 - 0.008ms returns 0x00
T3208 000:895.044 JLINK_WriteReg(PSP, 0x20001000)
T3208 000:895.050 - 0.008ms returns 0x00
T3208 000:895.057 JLINK_WriteReg(CFBP, 0x00000000)
T3208 000:895.063 - 0.008ms returns 0x00
T3208 000:895.071   JLINK_SetBPEx(Addr = 0x20000000, Type = 0xFFFFFFF2)
T3208 000:895.080 - 0.012ms returns 0x00000009
T3208 000:895.088 JLINK_Go()
T3208 000:895.103   CPU_ReadMem(4 bytes @ 0xE0001000)
T3208 000:898.979 - 3.907ms
T3208 000:899.004 JLINK_IsHalted()
T3208 000:899.558 - 0.558ms returns FALSE
T3208 000:902.954 JLINK_IsHalted()
T3208 000:903.558 - 0.608ms returns FALSE
T3208 000:904.994 JLINK_IsHalted()
T3208 000:905.561 - 0.574ms returns FALSE
T3208 000:906.955 JLINK_IsHalted()
T3208 000:907.479 - 0.528ms returns FALSE
T3208 000:908.955 JLINK_IsHalted()
T3208 000:909.558 - 0.607ms returns FALSE
T3208 000:910.959 JLINK_IsHalted()
T3208 000:911.584 - 0.630ms returns FALSE
T3208 000:914.958 JLINK_IsHalted()
T3208 000:915.559 - 0.607ms returns FALSE
T3208 000:916.954 JLINK_IsHalted()
T3208 000:917.558 - 0.608ms returns FALSE
T3208 000:918.956 JLINK_IsHalted()
T3208 000:919.478 - 0.526ms returns FALSE
T3208 000:920.977 JLINK_IsHalted()
T3208 000:921.584 - 0.613ms returns FALSE
T3208 000:924.970 JLINK_IsHalted()
T3208 000:925.609 - 0.646ms returns FALSE
T3208 000:926.968 JLINK_IsHalted()
T3208 000:927.582 - 0.621ms returns FALSE
T3208 000:928.958 JLINK_IsHalted()
T3208 000:929.504 - 0.550ms returns FALSE
T3208 000:930.962 JLINK_IsHalted()
T3208 000:934.421   CPU_ReadMem(2 bytes @ 0x20000000)
T3208 000:934.967 - 4.012ms returns TRUE
T3208 000:934.980 JLINK_ReadReg(R15 (PC))
T3208 000:934.989 - 0.011ms returns 0x20000000
T3208 000:934.995 JLINK_ClrBPEx(BPHandle = 0x00000009)
T3208 000:935.001 - 0.008ms returns 0x00
T3208 000:935.008 JLINK_ReadReg(R0)
T3208 000:935.013 - 0.008ms returns 0x00000000
T3208 000:935.501 JLINK_WriteMem(0x20000164, 0x029C Bytes, ...)
T3208 000:935.510   Data:  2C 4E 69 46 30 46 00 F0 5B F8 69 46 2A 48 00 F0 ...
T3208 000:935.525   CPU_WriteMem(668 bytes @ 0x20000164)
T3208 000:943.748 - 8.257ms returns 0x29C
T3208 000:943.765 JLINK_WriteMem(0x20000400, 0x0164 Bytes, ...)
T3208 000:943.771   Data:  14 32 02 E0 00 9A 09 0C 18 32 00 92 12 68 0A 42 ...
T3208 000:943.786   CPU_WriteMem(356 bytes @ 0x20000400)
T3208 000:948.584 - 4.826ms returns 0x164
T3208 000:948.600 JLINK_WriteReg(R0, 0x08001400)
T3208 000:948.609 - 0.011ms returns 0x00
T3208 000:948.615 JLINK_WriteReg(R1, 0x00000400)
T3208 000:948.621 - 0.008ms returns 0x00
T3208 000:948.628 JLINK_WriteReg(R2, 0x20000164)
T3208 000:948.634 - 0.008ms returns 0x00
T3208 000:948.640 JLINK_WriteReg(R3, 0x00000000)
T3208 000:948.646 - 0.008ms returns 0x00
T3208 000:948.652 JLINK_WriteReg(R4, 0x00000000)
T3208 000:948.658 - 0.009ms returns 0x00
T3208 000:948.665 JLINK_WriteReg(R5, 0x00000000)
T3208 000:948.671 - 0.008ms returns 0x00
T3208 000:948.677 JLINK_WriteReg(R6, 0x00000000)
T3208 000:948.683 - 0.008ms returns 0x00
T3208 000:948.689 JLINK_WriteReg(R7, 0x00000000)
T3208 000:948.695 - 0.008ms returns 0x00
T3208 000:948.702 JLINK_WriteReg(R8, 0x00000000)
T3208 000:948.708 - 0.008ms returns 0x00
T3208 000:948.714 JLINK_WriteReg(R9, 0x20000160)
T3208 000:948.720 - 0.008ms returns 0x00
T3208 000:948.726 JLINK_WriteReg(R10, 0x00000000)
T3208 000:948.732 - 0.008ms returns 0x00
T3208 000:948.739 JLINK_WriteReg(R11, 0x00000000)
T3208 000:948.744 - 0.008ms returns 0x00
T3208 000:948.751 JLINK_WriteReg(R12, 0x00000000)
T3208 000:948.757 - 0.008ms returns 0x00
T3208 000:948.763 JLINK_WriteReg(R13 (SP), 0x20001000)
T3208 000:948.769 - 0.009ms returns 0x00
T3208 000:948.776 JLINK_WriteReg(R14, 0x20000001)
T3208 000:948.782 - 0.008ms returns 0x00
T3208 000:948.788 JLINK_WriteReg(R15 (PC), 0x200000F4)
T3208 000:948.794 - 0.008ms returns 0x00
T3208 000:948.800 JLINK_WriteReg(XPSR, 0x01000000)
T3208 000:948.806 - 0.008ms returns 0x00
T3208 000:948.813 JLINK_WriteReg(MSP, 0x20001000)
T3208 000:948.818 - 0.008ms returns 0x00
T3208 000:948.825 JLINK_WriteReg(PSP, 0x20001000)
T3208 000:948.831 - 0.008ms returns 0x00
T3208 000:948.837 JLINK_WriteReg(CFBP, 0x00000000)
T3208 000:948.843 - 0.008ms returns 0x00
T3208 000:948.850   JLINK_SetBPEx(Addr = 0x20000000, Type = 0xFFFFFFF2)
T3208 000:948.859 - 0.012ms returns 0x0000000A
T3208 000:948.866 JLINK_Go()
T3208 000:948.878   CPU_ReadMem(4 bytes @ 0xE0001000)
T3208 000:952.781 - 3.923ms
T3208 000:952.798 JLINK_IsHalted()
T3208 000:953.334 - 0.543ms returns FALSE
T3208 000:954.972 JLINK_IsHalted()
T3208 000:955.529 - 0.563ms returns FALSE
T3208 000:956.964 JLINK_IsHalted()
T3208 000:957.522 - 0.562ms returns FALSE
T3208 000:958.970 JLINK_IsHalted()
T3208 000:959.527 - 0.565ms returns FALSE
T3208 000:960.968 JLINK_IsHalted()
T3208 000:961.583 - 0.620ms returns FALSE
T3208 000:962.967 JLINK_IsHalted()
T3208 000:963.557 - 0.593ms returns FALSE
T3208 000:964.969 JLINK_IsHalted()
T3208 000:965.581 - 0.619ms returns FALSE
T3208 000:966.968 JLINK_IsHalted()
T3208 000:967.503 - 0.539ms returns FALSE
T3208 000:969.002 JLINK_IsHalted()
T3208 000:969.558 - 0.560ms returns FALSE
T3208 000:970.972 JLINK_IsHalted()
T3208 000:971.557 - 0.589ms returns FALSE
T3208 000:972.969 JLINK_IsHalted()
T3208 000:973.528 - 0.563ms returns FALSE
T3208 000:974.972 JLINK_IsHalted()
T3208 000:975.582 - 0.616ms returns FALSE
T3208 000:976.969 JLINK_IsHalted()
T3208 000:977.503 - 0.539ms returns FALSE
T3208 000:978.974 JLINK_IsHalted()
T3208 000:979.580 - 0.613ms returns FALSE
T3208 000:980.973 JLINK_IsHalted()
T3208 000:981.504 - 0.535ms returns FALSE
T3208 000:982.971 JLINK_IsHalted()
T3208 000:983.580 - 0.613ms returns FALSE
T3208 000:985.017 JLINK_IsHalted()
T3208 000:988.451   CPU_ReadMem(2 bytes @ 0x20000000)
T3208 000:989.030 - 4.018ms returns TRUE
T3208 000:989.041 JLINK_ReadReg(R15 (PC))
T3208 000:989.049 - 0.011ms returns 0x20000000
T3208 000:989.055 JLINK_ClrBPEx(BPHandle = 0x0000000A)
T3208 000:989.062 - 0.009ms returns 0x00
T3208 000:989.068 JLINK_ReadReg(R0)
T3208 000:989.074 - 0.008ms returns 0x00000000
T3208 000:989.596 JLINK_WriteMem(0x20000164, 0x029C Bytes, ...)
T3208 000:989.608   Data:  03 FF 10 B9 64 1E A4 B2 F7 D2 29 46 48 46 FF F7 ...
T3208 000:989.621   CPU_WriteMem(668 bytes @ 0x20000164)
T3208 000:997.857 - 8.268ms returns 0x29C
T3208 000:997.870 JLINK_WriteMem(0x20000400, 0x0164 Bytes, ...)
T3208 000:997.876   Data:  14 20 00 F0 7B F8 00 21 A4 20 00 F0 77 F8 00 21 ...
T3208 000:997.889   CPU_WriteMem(356 bytes @ 0x20000400)
T3208 001:002.711 - 4.849ms returns 0x164
T3208 001:002.729 JLINK_WriteReg(R0, 0x08001800)
T3208 001:002.738 - 0.012ms returns 0x00
T3208 001:002.745 JLINK_WriteReg(R1, 0x00000400)
T3208 001:002.752 - 0.009ms returns 0x00
T3208 001:002.759 JLINK_WriteReg(R2, 0x20000164)
T3208 001:002.766 - 0.009ms returns 0x00
T3208 001:002.773 JLINK_WriteReg(R3, 0x00000000)
T3208 001:002.780 - 0.009ms returns 0x00
T3208 001:002.787 JLINK_WriteReg(R4, 0x00000000)
T3208 001:002.794 - 0.009ms returns 0x00
T3208 001:002.801 JLINK_WriteReg(R5, 0x00000000)
T3208 001:002.807 - 0.009ms returns 0x00
T3208 001:002.815 JLINK_WriteReg(R6, 0x00000000)
T3208 001:002.821 - 0.009ms returns 0x00
T3208 001:002.828 JLINK_WriteReg(R7, 0x00000000)
T3208 001:002.835 - 0.009ms returns 0x00
T3208 001:002.842 JLINK_WriteReg(R8, 0x00000000)
T3208 001:002.849 - 0.009ms returns 0x00
T3208 001:002.856 JLINK_WriteReg(R9, 0x20000160)
T3208 001:002.862 - 0.009ms returns 0x00
T3208 001:002.869 JLINK_WriteReg(R10, 0x00000000)
T3208 001:002.876 - 0.009ms returns 0x00
T3208 001:002.883 JLINK_WriteReg(R11, 0x00000000)
T3208 001:002.890 - 0.009ms returns 0x00
T3208 001:002.897 JLINK_WriteReg(R12, 0x00000000)
T3208 001:002.903 - 0.009ms returns 0x00
T3208 001:002.911 JLINK_WriteReg(R13 (SP), 0x20001000)
T3208 001:002.918 - 0.010ms returns 0x00
T3208 001:002.925 JLINK_WriteReg(R14, 0x20000001)
T3208 001:002.931 - 0.009ms returns 0x00
T3208 001:002.939 JLINK_WriteReg(R15 (PC), 0x200000F4)
T3208 001:002.945 - 0.009ms returns 0x00
T3208 001:002.952 JLINK_WriteReg(XPSR, 0x01000000)
T3208 001:002.959 - 0.009ms returns 0x00
T3208 001:002.966 JLINK_WriteReg(MSP, 0x20001000)
T3208 001:002.979 - 0.016ms returns 0x00
T3208 001:002.990 JLINK_WriteReg(PSP, 0x20001000)
T3208 001:002.997 - 0.010ms returns 0x00
T3208 001:003.006 JLINK_WriteReg(CFBP, 0x00000000)
T3208 001:003.013 - 0.010ms returns 0x00
T3208 001:003.023   JLINK_SetBPEx(Addr = 0x20000000, Type = 0xFFFFFFF2)
T3208 001:003.034 - 0.014ms returns 0x0000000B
T3208 001:003.042 JLINK_Go()
T3208 001:003.056   CPU_ReadMem(4 bytes @ 0xE0001000)
T3208 001:006.981 - 3.946ms
T3208 001:006.996 JLINK_IsHalted()
T3208 001:007.528 - 0.535ms returns FALSE
T3208 001:009.982 JLINK_IsHalted()
T3208 001:010.555 - 0.581ms returns FALSE
T3208 001:011.980 JLINK_IsHalted()
T3208 001:012.578 - 0.605ms returns FALSE
T3208 001:013.979 JLINK_IsHalted()
T3208 001:014.558 - 0.585ms returns FALSE
T3208 001:015.982 JLINK_IsHalted()
T3208 001:016.527 - 0.552ms returns FALSE
T3208 001:017.983 JLINK_IsHalted()
T3208 001:018.565 - 0.589ms returns FALSE
T3208 001:019.985 JLINK_IsHalted()
T3208 001:020.533 - 0.557ms returns FALSE
T3208 001:021.987 JLINK_IsHalted()
T3208 001:022.583 - 0.604ms returns FALSE
T3208 001:023.986 JLINK_IsHalted()
T3208 001:024.563 - 0.586ms returns FALSE
T3208 001:027.987 JLINK_IsHalted()
T3208 001:028.629 - 0.648ms returns FALSE
T3208 001:029.988 JLINK_IsHalted()
T3208 001:030.562 - 0.586ms returns FALSE
T3208 001:031.989 JLINK_IsHalted()
T3208 001:032.600 - 0.618ms returns FALSE
T3208 001:033.989 JLINK_IsHalted()
T3208 001:034.585 - 0.608ms returns FALSE
T3208 001:035.990 JLINK_IsHalted()
T3208 001:036.609 - 0.628ms returns FALSE
T3208 001:037.991 JLINK_IsHalted()
T3208 001:041.451   CPU_ReadMem(2 bytes @ 0x20000000)
T3208 001:042.030 - 4.046ms returns TRUE
T3208 001:042.043 JLINK_ReadReg(R15 (PC))
T3208 001:042.052 - 0.012ms returns 0x20000000
T3208 001:042.059 JLINK_ClrBPEx(BPHandle = 0x0000000B)
T3208 001:042.066 - 0.009ms returns 0x00
T3208 001:042.072 JLINK_ReadReg(R0)
T3208 001:042.078 - 0.008ms returns 0x00000000
T3208 001:042.607 JLINK_WriteMem(0x20000164, 0x029C Bytes, ...)
T3208 001:042.618   Data:  10 F0 FF 0F 1B D1 00 21 28 46 02 F0 6F FE 21 46 ...
T3208 001:042.633   CPU_WriteMem(668 bytes @ 0x20000164)
T3208 001:050.941 - 8.344ms returns 0x29C
T3208 001:050.959 JLINK_WriteMem(0x20000400, 0x0164 Bytes, ...)
T3208 001:050.966   Data:  38 46 02 F0 EF FF 4F F6 FD 74 20 46 40 1E 80 B2 ...
T3208 001:050.984   CPU_WriteMem(356 bytes @ 0x20000400)
T3208 001:055.790 - 4.846ms returns 0x164
T3208 001:055.820 JLINK_WriteReg(R0, 0x08001C00)
T3208 001:055.841 - 0.025ms returns 0x00
T3208 001:055.848 JLINK_WriteReg(R1, 0x00000400)
T3208 001:055.854 - 0.008ms returns 0x00
T3208 001:055.860 JLINK_WriteReg(R2, 0x20000164)
T3208 001:055.866 - 0.008ms returns 0x00
T3208 001:055.873 JLINK_WriteReg(R3, 0x00000000)
T3208 001:055.878 - 0.008ms returns 0x00
T3208 001:055.885 JLINK_WriteReg(R4, 0x00000000)
T3208 001:055.890 - 0.008ms returns 0x00
T3208 001:055.896 JLINK_WriteReg(R5, 0x00000000)
T3208 001:055.902 - 0.008ms returns 0x00
T3208 001:055.908 JLINK_WriteReg(R6, 0x00000000)
T3208 001:055.914 - 0.008ms returns 0x00
T3208 001:055.920 JLINK_WriteReg(R7, 0x00000000)
T3208 001:055.926 - 0.008ms returns 0x00
T3208 001:055.932 JLINK_WriteReg(R8, 0x00000000)
T3208 001:055.938 - 0.008ms returns 0x00
T3208 001:055.944 JLINK_WriteReg(R9, 0x20000160)
T3208 001:055.950 - 0.008ms returns 0x00
T3208 001:055.956 JLINK_WriteReg(R10, 0x00000000)
T3208 001:055.961 - 0.008ms returns 0x00
T3208 001:055.967 JLINK_WriteReg(R11, 0x00000000)
T3208 001:055.973 - 0.008ms returns 0x00
T3208 001:055.979 JLINK_WriteReg(R12, 0x00000000)
T3208 001:055.986 - 0.009ms returns 0x00
T3208 001:055.992 JLINK_WriteReg(R13 (SP), 0x20001000)
T3208 001:055.999 - 0.009ms returns 0x00
T3208 001:056.006 JLINK_WriteReg(R14, 0x20000001)
T3208 001:056.011 - 0.008ms returns 0x00
